! NanoVNA-App
! Date: 2023-06-06 09:33:41
! Start: 144MHz Stop: 147MHz Points: 401
! S-Parameter data: F S11
# Hz S RI R 50
!     Frequency           S11_Real           S11_Imag
      144000000   -9.875418991e-02   -5.331356525e-01
      144007500   -9.643325955e-02   -5.298702717e-01
      144015000   -9.792913496e-02   -5.331456065e-01
      144022500   -1.009651870e-01   -5.309932232e-01
      144030000   -9.874404222e-02   -5.277386308e-01
      144037500   -1.003493145e-01   -5.310845971e-01
      144045000   -1.036018208e-01   -5.286653042e-01
      144052500   -1.018685102e-01   -5.269910693e-01
      144060000   -1.022875309e-01   -5.289831161e-01
      144067500   -1.051182374e-01   -5.263102055e-01
      144075000   -1.044513360e-01   -5.260825157e-01
      144082500   -1.050744131e-01   -5.272029042e-01
      144090000   -1.069049984e-01   -5.232550502e-01
      144097500   -1.068272963e-01   -5.246812105e-01
      144105000   -1.084162518e-01   -5.236141086e-01
      144112500   -1.082741171e-01   -5.200629234e-01
      144120000   -1.091327518e-01   -5.222352743e-01
      144127500   -1.121783331e-01   -5.198731422e-01
      144135000   -1.106154695e-01   -5.158719420e-01
      144142500   -1.125695929e-01   -5.190243125e-01
      144150000   -1.158321798e-01   -5.161167979e-01
      144157500   -1.136652455e-01   -5.125204325e-01
      144165000   -1.161876097e-01   -5.151121616e-01
      144172500   -1.196978539e-01   -5.121316910e-01
      144180000   -1.174786761e-01   -5.089970827e-01
      144187500   -1.197324321e-01   -5.116246939e-01
      144195000   -1.231498271e-01   -5.084447265e-01
      144202500   -1.215043366e-01   -5.062988997e-01
      144210000   -1.230599135e-01   -5.088007450e-01
      144217500   -1.255002767e-01   -5.048851371e-01
      144225000   -1.252022386e-01   -5.050064325e-01
      144232500   -1.254316866e-01   -5.057304502e-01
      144240000   -1.267529726e-01   -5.020612478e-01
      144247500   -1.270140111e-01   -5.034546852e-01
      144255000   -1.281016022e-01   -5.027527213e-01
      144262500   -1.274510622e-01   -4.992576241e-01
      144270000   -1.283864677e-01   -5.011397600e-01
      144277500   -1.304628253e-01   -4.990152717e-01
      144285000   -1.282824278e-01   -4.960594177e-01
      144292500   -1.298587769e-01   -4.990719259e-01
      144300000   -1.327452660e-01   -4.965133071e-01
      144307500   -1.296218783e-01   -4.935530126e-01
      144315000   -1.319643557e-01   -4.965408146e-01
      144322500   -1.345535070e-01   -4.937795997e-01
      144330000   -1.315854937e-01   -4.911692142e-01
      144337500   -1.341013759e-01   -4.941363931e-01
      144345000   -1.365170628e-01   -4.905310273e-01
      144352500   -1.346991509e-01   -4.892250299e-01
      144360000   -1.361714303e-01   -4.914369583e-01
      144367500   -1.381983310e-01   -4.878218770e-01
      144375000   -1.380192786e-01   -4.876857698e-01
      144382500   -1.390979439e-01   -4.886361361e-01
      144390000   -1.394460946e-01   -4.846478403e-01
      144397500   -1.403380036e-01   -4.858033955e-01
      144405000   -1.412655860e-01   -4.848968685e-01
      144412500   -1.404019892e-01   -4.818091989e-01
      144420000   -1.415390819e-01   -4.837873876e-01
      144427500   -1.436011344e-01   -4.815032184e-01
      144435000   -1.412407309e-01   -4.786174595e-01
      144442500   -1.435080767e-01   -4.813877642e-01
      144450000   -1.454939544e-01   -4.781804085e-01
      144457500   -1.424370855e-01   -4.757468998e-01
      144465000   -1.445795596e-01   -4.795942008e-01
      144472500   -1.475917250e-01   -4.754904807e-01
      144480000   -1.440489590e-01   -4.738057554e-01
      144487500   -1.470677704e-01   -4.761270881e-01
      144495000   -1.492483020e-01   -4.722656310e-01
      144502500   -1.471567899e-01   -4.713633955e-01
      144510000   -1.492728591e-01   -4.734145701e-01
      144517500   -1.504496336e-01   -4.697273970e-01
      144525000   -1.506768167e-01   -4.695546329e-01
      144532500   -1.515690088e-01   -4.703437388e-01
      144540000   -1.521212906e-01   -4.663120508e-01
      144547500   -1.529581100e-01   -4.674341977e-01
      144555000   -1.543478519e-01   -4.664764702e-01
      144562500   -1.531223208e-01   -4.632358253e-01
      144570000   -1.550072134e-01   -4.649661481e-01
      144577500   -1.565771103e-01   -4.623783231e-01
      144585000   -1.543533057e-01   -4.596681297e-01
      144592500   -1.568950415e-01   -4.619328976e-01
      144600000   -1.591121703e-01   -4.586211741e-01
      144607500   -1.560031921e-01   -4.564203918e-01
      144615000   -1.592748165e-01   -4.588302076e-01
      144622500   -1.611422598e-01   -4.549353123e-01
      144630000   -1.579487920e-01   -4.536072314e-01
      144637500   -1.612910479e-01   -4.557262063e-01
      144645000   -1.631712914e-01   -4.517467916e-01
      144652500   -1.610970497e-01   -4.508682489e-01
      144660000   -1.634030193e-01   -4.528407156e-01
      144667500   -1.643772721e-01   -4.487102926e-01
      144675000   -1.642171741e-01   -4.487201869e-01
      144682500   -1.655425727e-01   -4.499343038e-01
      144690000   -1.652413309e-01   -4.459456801e-01
      144697500   -1.659868658e-01   -4.470165968e-01
      144705000   -1.669200659e-01   -4.462916851e-01
      144712500   -1.653059572e-01   -4.434037507e-01
      144720000   -1.669460833e-01   -4.452302754e-01
      144727500   -1.681797206e-01   -4.429497421e-01
      144735000   -1.655606627e-01   -4.411656260e-01
      144742500   -1.681804657e-01   -4.434298277e-01
      144750000   -1.683637500e-01   -4.415399432e-01
      144757500   -1.648498625e-01   -4.399446547e-01
      144765000   -1.684427261e-01   -4.423933029e-01
      144772500   -1.697884798e-01   -4.387174249e-01
      144780000   -1.660775840e-01   -4.377737343e-01
      144787500   -1.697449535e-01   -4.402481318e-01
      144795000   -1.709228456e-01   -4.362733662e-01
      144802500   -1.683136672e-01   -4.355387390e-01
      144810000   -1.713773608e-01   -4.377554655e-01
      144817500   -1.720881462e-01   -4.334088862e-01
      144825000   -1.717905104e-01   -4.335043728e-01
      144832500   -1.732609719e-01   -4.343936145e-01
      144840000   -1.732939184e-01   -4.303106368e-01
      144847500   -1.742178500e-01   -4.309265018e-01
      144855000   -1.755272299e-01   -4.299122095e-01
      144862500   -1.741906255e-01   -4.270918965e-01
      144870000   -1.763439476e-01   -4.284861982e-01
      144877500   -1.769522876e-01   -4.256457090e-01
      144885000   -1.744969785e-01   -4.237543046e-01
      144892500   -1.779080182e-01   -4.255714118e-01
      144900000   -1.793673187e-01   -4.218744934e-01
      144907500   -1.753533632e-01   -4.205920994e-01
      144915000   -1.794997007e-01   -4.229025841e-01
      144922500   -1.805471629e-01   -4.186097980e-01
      144930000   -1.769046932e-01   -4.180754125e-01
      144937500   -1.809168905e-01   -4.199202359e-01
      144945000   -1.819621027e-01   -4.155453742e-01
      144952500   -1.794448793e-01   -4.151030779e-01
      144960000   -1.823977232e-01   -4.167614877e-01
      144967500   -1.829884499e-01   -4.125787318e-01
      144975000   -1.827418059e-01   -4.119558334e-01
      144982500   -1.845963150e-01   -4.130963385e-01
      144990000   -1.837473959e-01   -4.092492759e-01
      144997500   -1.852509379e-01   -4.093331695e-01
      145005000   -1.862908602e-01   -4.086850286e-01
      145012500   -1.842202395e-01   -4.057866931e-01
      145020000   -1.868322343e-01   -4.077110589e-01
      145027500   -1.876364946e-01   -4.042559266e-01
      145035000   -1.845431924e-01   -4.030688107e-01
      145042500   -1.885927171e-01   -4.047383368e-01
      145050000   -1.890899986e-01   -4.008438587e-01
      145057500   -1.854181290e-01   -4.005884826e-01
      145065000   -1.897581816e-01   -4.019415975e-01
      145072500   -1.906113476e-01   -3.980484307e-01
      145080000   -1.869513988e-01   -3.976653814e-01
      145087500   -1.914089769e-01   -3.991260529e-01
      145095000   -1.917672604e-01   -3.949110806e-01
      145102500   -1.891626418e-01   -3.946104646e-01
      145110000   -1.928878129e-01   -3.959221244e-01
      145117500   -1.929970384e-01   -3.917332590e-01
      145125000   -1.925756037e-01   -3.914022148e-01
      145132500   -1.946155131e-01   -3.924984336e-01
      145140000   -1.933756322e-01   -3.884124756e-01
      145147500   -1.951648146e-01   -3.888562620e-01
      145155000   -1.950426549e-01   -3.890178800e-01
      145162500   -1.940257549e-01   -3.850843608e-01
      145170000   -1.969348937e-01   -3.858662546e-01
      145177500   -1.971123815e-01   -3.829713166e-01
      145185000   -1.943489313e-01   -3.815667331e-01
      145192500   -1.983575970e-01   -3.827094138e-01
      145200000   -1.988219172e-01   -3.787534833e-01
      145207500   -1.951609254e-01   -3.781679273e-01
      145215000   -2.000268847e-01   -3.790819347e-01
      145222500   -2.002284229e-01   -3.747273386e-01
      145230000   -1.969182342e-01   -3.746198118e-01
      145237500   -2.017250657e-01   -3.752531111e-01
      145245000   -2.015648633e-01   -3.710205257e-01
      145252500   -1.991309673e-01   -3.708413243e-01
      145260000   -2.031035274e-01   -3.716322482e-01
      145267500   -2.024114281e-01   -3.671663404e-01
      145275000   -2.019663453e-01   -3.670572639e-01
      145282500   -2.046866268e-01   -3.675973713e-01
      145290000   -2.030843347e-01   -3.638290167e-01
      145297500   -2.045600712e-01   -3.640384376e-01
      145305000   -2.053543925e-01   -3.634809554e-01
      145312500   -2.030741125e-01   -3.613919616e-01
      145320000   -2.058488727e-01   -3.621282279e-01
      145327500   -2.059013397e-01   -3.597273529e-01
      145335000   -2.027907372e-01   -3.589894176e-01
      145342500   -2.070585936e-01   -3.598315120e-01
      145350000   -2.065113336e-01   -3.569361567e-01
      145357500   -2.031760514e-01   -3.565990627e-01
      145365000   -2.080772966e-01   -3.572979569e-01
      145372500   -2.076765746e-01   -3.532416821e-01
      145380000   -2.043251246e-01   -3.535709083e-01
      145387500   -2.094039023e-01   -3.539811373e-01
      145395000   -2.088171244e-01   -3.496600688e-01
      145402500   -2.064218223e-01   -3.499265015e-01
      145410000   -2.108591944e-01   -3.499056399e-01
      145417500   -2.098982930e-01   -3.455230296e-01
      145425000   -2.098049968e-01   -3.453733623e-01
      145432500   -2.123412341e-01   -3.450280428e-01
      145440000   -2.106730342e-01   -3.410205543e-01
      145447500   -2.121969014e-01   -3.403072655e-01
      145455000   -2.134142518e-01   -3.392504156e-01
      145462500   -2.110660076e-01   -3.367469013e-01
      145470000   -2.142066956e-01   -3.362300396e-01
      145477500   -2.140685320e-01   -3.336578906e-01
      145485000   -2.110273093e-01   -3.326413035e-01
      145492500   -2.157258540e-01   -3.324694932e-01
      145500000   -2.162790000e-01   -3.294205666e-01
      145507500   -2.143051475e-01   -3.265078664e-01
      145515000   -2.167075425e-01   -3.257603645e-01
      145522500   -2.169649899e-01   -3.242880404e-01
      145530000   -2.141772807e-01   -3.229246438e-01
      145537500   -2.180437893e-01   -3.224317431e-01
      145545000   -2.176090032e-01   -3.192242086e-01
      145552500   -2.147476971e-01   -3.192947209e-01
      145560000   -2.194528878e-01   -3.187437952e-01
      145567500   -2.184782177e-01   -3.149752319e-01
      145575000   -2.153413743e-01   -3.154276013e-01
      145582500   -2.206040770e-01   -3.151338696e-01
      145590000   -2.193343639e-01   -3.111552596e-01
      145597500   -2.163180262e-01   -3.122854829e-01
      145605000   -2.215756625e-01   -3.115772605e-01
      145612500   -2.200762928e-01   -3.075222969e-01
      145620000   -2.183860838e-01   -3.080301285e-01
      145627500   -2.227419615e-01   -3.078762889e-01
      145635000   -2.205117941e-01   -3.043750823e-01
      145642500   -2.210174501e-01   -3.036833704e-01
      145650000   -2.231898755e-01   -3.038433194e-01
      145657500   -2.204808444e-01   -3.013188839e-01
      145665000   -2.229004949e-01   -3.008438945e-01
      145672500   -2.230216414e-01   -2.992844582e-01
      145680000   -2.202512771e-01   -2.987119853e-01
      145687500   -2.241961956e-01   -2.975305617e-01
      145695000   -2.229481936e-01   -2.948777378e-01
      145702500   -2.201888561e-01   -2.952212393e-01
      145710000   -2.250251919e-01   -2.940460443e-01
      145717500   -2.239930332e-01   -2.902032137e-01
      145725000   -2.213412523e-01   -2.912905812e-01
      145732500   -2.263743728e-01   -2.895594239e-01
      145740000   -2.245308012e-01   -2.854108512e-01
      145747500   -2.221848965e-01   -2.862182856e-01
      145755000   -2.276071012e-01   -2.846541703e-01
      145762500   -2.254151404e-01   -2.804380059e-01
      145770000   -2.239028066e-01   -2.804991901e-01
      145777500   -2.283262461e-01   -2.793908119e-01
      145785000   -2.259085774e-01   -2.757527530e-01
      145792500   -2.264081389e-01   -2.751468420e-01
      145800000   -2.289631069e-01   -2.743023038e-01
      145807500   -2.264981866e-01   -2.725305259e-01
      145815000   -2.288735658e-01   -2.710912824e-01
      145822500   -2.290158719e-01   -2.698860765e-01
      145830000   -2.261309475e-01   -2.692789137e-01
      145837500   -2.301489860e-01   -2.677493691e-01
      145845000   -2.290085554e-01   -2.656149268e-01
      145852500   -2.262519002e-01   -2.663226426e-01
      145860000   -2.313766479e-01   -2.649149001e-01
      145867500   -2.293252051e-01   -2.618542612e-01
      145875000   -2.266801745e-01   -2.633116543e-01
      145882500   -2.322126180e-01   -2.617576122e-01
      145890000   -2.302125245e-01   -2.585203350e-01
      145897500   -2.276593149e-01   -2.600112557e-01
      145905000   -2.326758057e-01   -2.580014467e-01
      145912500   -2.302406579e-01   -2.548504174e-01
      145920000   -2.289247811e-01   -2.555341125e-01
      145927500   -2.331906408e-01   -2.538888156e-01
      145935000   -2.305956781e-01   -2.511793375e-01
      145942500   -2.307503670e-01   -2.498342842e-01
      145950000   -2.335164696e-01   -2.492700219e-01
      145957500   -2.305023670e-01   -2.472199500e-01
      145965000   -2.327150404e-01   -2.454808056e-01
      145972500   -2.329389453e-01   -2.440470457e-01
      145980000   -2.304416597e-01   -2.434135228e-01
      145987500   -2.342455089e-01   -2.410635352e-01
      145995000   -2.327744514e-01   -2.386199832e-01
      146002500   -2.304182351e-01   -2.391874641e-01
      146010000   -2.354063988e-01   -2.367207706e-01
      146017500   -2.334921807e-01   -2.335525304e-01
      146025000   -2.310324013e-01   -2.347181439e-01
      146032500   -2.362448424e-01   -2.316707373e-01
      146040000   -2.337277979e-01   -2.287084907e-01
      146047500   -2.317766696e-01   -2.301214784e-01
      146055000   -2.369543463e-01   -2.272892892e-01
      146062500   -2.341471314e-01   -2.241830230e-01
      146070000   -2.326327115e-01   -2.249966562e-01
      146077500   -2.371562123e-01   -2.224581242e-01
      146085000   -2.340282500e-01   -2.198197395e-01
      146092500   -2.342304438e-01   -2.191638350e-01
      146100000   -2.366831601e-01   -2.173089981e-01
      146107500   -2.338294983e-01   -2.161926925e-01
      146115000   -2.357236147e-01   -2.141709030e-01
      146122500   -2.359065115e-01   -2.130552679e-01
      146130000   -2.333504856e-01   -2.128383666e-01
      146137500   -2.369351983e-01   -2.102171332e-01
      146145000   -2.354175895e-01   -2.083059698e-01
      146152500   -2.333415598e-01   -2.090142220e-01
      146160000   -2.380358726e-01   -2.053923756e-01
      146167500   -2.359810472e-01   -2.028059065e-01
      146175000   -2.338590473e-01   -2.040980011e-01
      146182500   -2.390450835e-01   -1.998489052e-01
      146190000   -2.365572900e-01   -1.967222244e-01
      146197500   -2.348815799e-01   -1.980720907e-01
      146205000   -2.397623658e-01   -1.938694417e-01
      146212500   -2.367141992e-01   -1.906242520e-01
      146220000   -2.356103063e-01   -1.911935508e-01
      146227500   -2.388609499e-01   -1.865139753e-01
      146235000   -2.313839644e-01   -1.841198951e-01
      146242500   -2.358307093e-01   -1.833703220e-01
      146250000   -2.349064201e-01   -1.850373894e-01
      146257500   -2.399682552e-01   -1.802089959e-01
      146265000   -2.371263653e-01   -1.784694344e-01
      146272500   -2.356549799e-01   -1.803115010e-01
      146280000   -2.402432114e-01   -1.761510521e-01
      146287500   -2.373594344e-01   -1.737637371e-01
      146295000   -2.360758781e-01   -1.756357700e-01
      146302500   -2.403005362e-01   -1.715469509e-01
      146310000   -2.368967086e-01   -1.695069075e-01
      146317500   -2.361563742e-01   -1.695441157e-01
      146325000   -2.396809161e-01   -1.664143354e-01
      146332500   -2.364886552e-01   -1.653138101e-01
      146340000   -2.367732674e-01   -1.635233015e-01
      146347500   -2.387637943e-01   -1.618212163e-01
      146355000   -2.359440923e-01   -1.615478992e-01
      146362500   -2.378953546e-01   -1.588580906e-01
      146370000   -2.373299152e-01   -1.580116451e-01
      146377500   -2.355879247e-01   -1.587535739e-01
      146385000   -2.385916710e-01   -1.549710035e-01
      146392500   -2.365759164e-01   -1.538656801e-01
      146400000   -2.348379195e-01   -1.557787210e-01
      146407500   -2.391044050e-01   -1.513097286e-01
      146415000   -2.363316864e-01   -1.495718509e-01
      146422500   -2.348484099e-01   -1.517046988e-01
      146430000   -2.389219552e-01   -1.471437365e-01
      146437500   -2.358912826e-01   -1.456552744e-01
      146445000   -2.349130064e-01   -1.474302560e-01
      146452500   -2.388551980e-01   -1.428388953e-01
      146460000   -2.351585031e-01   -1.410579830e-01
      146467500   -2.345102131e-01   -1.410397887e-01
      146475000   -2.380251884e-01   -1.374387294e-01
      146482500   -2.343890220e-01   -1.362931877e-01
      146490000   -2.344842851e-01   -1.341217607e-01
      146497500   -2.359441668e-01   -1.315902770e-01
      146505000   -2.334502041e-01   -1.313358247e-01
      146512500   -2.343770415e-01   -1.277235299e-01
      146520000   -2.340341955e-01   -1.262420863e-01
      146527500   -2.319755554e-01   -1.269153804e-01
      146535000   -2.345197201e-01   -1.223063245e-01
      146542500   -2.325436175e-01   -1.213480011e-01
      146550000   -2.307930589e-01   -1.226717085e-01
      146557500   -2.343759835e-01   -1.171252504e-01
      146565000   -2.313320339e-01   -1.162542775e-01
      146572500   -2.300326079e-01   -1.181121469e-01
      146580000   -2.337786406e-01   -1.127325743e-01
      146587500   -2.304963917e-01   -1.117456257e-01
      146595000   -2.295069098e-01   -1.135668531e-01
      146602500   -2.331802845e-01   -1.085545421e-01
      146610000   -2.297918350e-01   -1.076335981e-01
      146617500   -2.290981859e-01   -1.081403121e-01
      146625000   -2.320379764e-01   -1.040068641e-01
      146632500   -2.290236950e-01   -1.040014476e-01
      146640000   -2.289766371e-01   -1.020587236e-01
      146647500   -2.306360900e-01   -9.987521917e-02
      146655000   -2.283752263e-01   -1.005430147e-01
      146662500   -2.293649167e-01   -9.720091522e-02
      146670000   -2.289436162e-01   -9.637167305e-02
      146677500   -2.274705768e-01   -9.742809087e-02
      146685000   -2.293628901e-01   -9.251655638e-02
      146692500   -2.275473028e-01   -9.218554199e-02
