! NanoVNA-App
! Date: 2023-06-06 09:32:39
! Start: 433MHz Stop: 440MHz Points: 401
! S-Parameter data: F S11
# Hz S RI R 50
!     Frequency           S11_Real           S11_Imag
      433000000    3.082072437e-01   -2.249571234e-01
      433017500    3.073309362e-01   -2.252712250e-01
      433035000    3.083288670e-01   -2.247259021e-01
      433052500    3.088814914e-01   -2.253997028e-01
      433070000    3.084886670e-01   -2.251533121e-01
      433087500    3.084078729e-01   -2.256963402e-01
      433105000    3.091286123e-01   -2.257778794e-01
      433122500    3.088585436e-01   -2.258545011e-01
      433140000    3.093725145e-01   -2.256512791e-01
      433157500    3.094067872e-01   -2.260679007e-01
      433175000    3.096704483e-01   -2.257170379e-01
      433192500    3.100357056e-01   -2.262918353e-01
      433210000    3.097341955e-01   -2.261800766e-01
      433227500    3.096842766e-01   -2.265203595e-01
      433245000    3.104279041e-01   -2.271336019e-01
      433262500    3.101100922e-01   -2.263512164e-01
      433280000    3.109893203e-01   -2.262153625e-01
      433297500    3.139712512e-01   -2.334849387e-01
      433315000    3.010317087e-01   -2.261371017e-01
      433332500    3.036084771e-01   -2.255273908e-01
      433350000    3.104359210e-01   -2.318651527e-01
      433367500    3.110542595e-01   -2.271511555e-01
      433385000    3.106881678e-01   -2.275859565e-01
      433402500    3.113922775e-01   -2.281834036e-01
      433420000    3.119302392e-01   -2.280050814e-01
      433437500    3.117535710e-01   -2.279481888e-01
      433455000    3.117132187e-01   -2.278733701e-01
      433472500    3.117896914e-01   -2.275354713e-01
      433490000    3.121576011e-01   -2.283035666e-01
      433507500    3.121901453e-01   -2.284159809e-01
      433525000    3.123689294e-01   -2.281083167e-01
      433542500    3.121243715e-01   -2.288036495e-01
      433560000    3.121530116e-01   -2.284757644e-01
      433577500    3.128298819e-01   -2.285092175e-01
      433595000    3.131672740e-01   -2.290238142e-01
      433612500    3.131340742e-01   -2.292709053e-01
      433630000    3.125464320e-01   -2.287357897e-01
      433647500    3.134960830e-01   -2.291690707e-01
      433665000    3.134089708e-01   -2.289108187e-01
      433682500    3.139606416e-01   -2.287345380e-01
      433700000    3.137723804e-01   -2.300059497e-01
      433717500    3.136804700e-01   -2.298734635e-01
      433735000    3.138144612e-01   -2.302508354e-01
      433752500    3.139041066e-01   -2.304248065e-01
      433770000    3.141630590e-01   -2.299835682e-01
      433787500    3.161159754e-01   -2.295854688e-01
      433805000    3.144771159e-01   -2.307801098e-01
      433822500    3.148055077e-01   -2.303100526e-01
      433840000    3.148508668e-01   -2.310254425e-01
      433857500    3.148970604e-01   -2.309363186e-01
      433875000    3.148495555e-01   -2.305811942e-01
      433892500    3.155164719e-01   -2.306456566e-01
      433910000    3.159610629e-01   -2.315532565e-01
      433927500    3.154488206e-01   -2.311317325e-01
      433945000    3.156896830e-01   -2.321187854e-01
      433962500    3.155817091e-01   -2.311403751e-01
      433980000    3.151942790e-01   -2.319891155e-01
      433997500    3.155850172e-01   -2.328291237e-01
      434015000    3.160399199e-01   -2.321220934e-01
      434032500    3.158356249e-01   -2.315831631e-01
      434050000    3.160377741e-01   -2.325180173e-01
      434067500    3.163927794e-01   -2.325180918e-01
      434085000    3.162279725e-01   -2.323147953e-01
      434102500    3.167353868e-01   -2.326447517e-01
      434120000    3.168182373e-01   -2.330900282e-01
      434137500    3.166639209e-01   -2.332654297e-01
      434155000    3.173374236e-01   -2.327059805e-01
      434172500    3.171237111e-01   -2.331920117e-01
      434190000    3.169552684e-01   -2.335989177e-01
      434207500    3.170844018e-01   -2.338597476e-01
      434225000    3.164621592e-01   -2.353793830e-01
      434242500    3.174741268e-01   -2.333948612e-01
      434260000    3.175372183e-01   -2.337816358e-01
      434277500    3.184857070e-01   -2.342940867e-01
      434295000    3.180146217e-01   -2.339805067e-01
      434312500    3.181356490e-01   -2.339871675e-01
      434330000    3.179166913e-01   -2.341505438e-01
      434347500    3.180488646e-01   -2.344178110e-01
      434365000    3.180267215e-01   -2.342105806e-01
      434382500    3.180911839e-01   -2.340683341e-01
      434400000    3.182991743e-01   -2.351810783e-01
      434417500    3.186891675e-01   -2.345175147e-01
      434435000    3.187569678e-01   -2.350897938e-01
      434452500    3.192276359e-01   -2.357393503e-01
      434470000    3.187481463e-01   -2.351900041e-01
      434487500    3.191899657e-01   -2.353157103e-01
      434505000    3.194986582e-01   -2.363029569e-01
      434522500    3.197007179e-01   -2.361548841e-01
      434540000    3.194219768e-01   -2.358928025e-01
      434557500    3.197459877e-01   -2.360665500e-01
      434575000    3.196891546e-01   -2.354031056e-01
      434592500    3.197798729e-01   -2.364588231e-01
      434610000    3.195292056e-01   -2.363587916e-01
      434627500    3.199749589e-01   -2.362332493e-01
      434645000    3.202762306e-01   -2.367146313e-01
      434662500    3.205047846e-01   -2.369298935e-01
      434680000    3.205812275e-01   -2.364960760e-01
      434697500    3.203400671e-01   -2.374511808e-01
      434715000    3.208279312e-01   -2.368965000e-01
      434732500    3.205793798e-01   -2.370411009e-01
      434750000    3.204922080e-01   -2.378838062e-01
      434767500    3.215011656e-01   -2.379655689e-01
      434785000    3.210599124e-01   -2.381632179e-01
      434802500    3.216167390e-01   -2.384743840e-01
      434820000    3.209015131e-01   -2.375257313e-01
      434837500    3.218812644e-01   -2.378823459e-01
      434855000    3.212892711e-01   -2.386987507e-01
      434872500    3.214841187e-01   -2.383877337e-01
      434890000    3.216699958e-01   -2.382432073e-01
      434907500    3.217886388e-01   -2.390612960e-01
      434925000    3.213989139e-01   -2.383071333e-01
      434942500    3.213959038e-01   -2.384893894e-01
      434960000    3.223728538e-01   -2.396711111e-01
      434977500    3.220167756e-01   -2.394292504e-01
      434995000    3.217873573e-01   -2.393912226e-01
      435012500    3.225691319e-01   -2.403312773e-01
      435030000    3.222042620e-01   -2.393981069e-01
      435047500    3.223847747e-01   -2.398315668e-01
      435065000    3.228393793e-01   -2.401704788e-01
      435082500    3.224938214e-01   -2.399281412e-01
      435100000    3.225818574e-01   -2.403525114e-01
      435117500    3.231152892e-01   -2.402722389e-01
      435135000    3.230519295e-01   -2.399382591e-01
      435152500    3.225985765e-01   -2.407938689e-01
      435170000    3.234218359e-01   -2.407679558e-01
      435187500    3.231709898e-01   -2.406464070e-01
      435205000    3.238105178e-01   -2.413271666e-01
      435222500    3.231301308e-01   -2.406369895e-01
      435240000    3.236973286e-01   -2.412759513e-01
      435257500    3.238738775e-01   -2.417810708e-01
      435275000    3.235085011e-01   -2.416603416e-01
      435292500    3.247360587e-01   -2.406872511e-01
      435310000    3.238480687e-01   -2.420249134e-01
      435327500    3.241300881e-01   -2.417934537e-01
      435345000    3.241826594e-01   -2.415938228e-01
      435362500    3.242869079e-01   -2.423021346e-01
      435380000    3.241451681e-01   -2.423100621e-01
      435397500    3.244347274e-01   -2.427141666e-01
      435415000    3.243874609e-01   -2.427045703e-01
      435432500    3.243955374e-01   -2.424823791e-01
      435450000    3.249152899e-01   -2.425549775e-01
      435467500    3.248257935e-01   -2.429343611e-01
      435485000    3.227785230e-01   -2.424718142e-01
      435502500    3.244566023e-01   -2.437201440e-01
      435520000    3.243528306e-01   -2.430247217e-01
      435537500    3.246187270e-01   -2.426772863e-01
      435555000    3.246017098e-01   -2.440308630e-01
      435572500    3.247755766e-01   -2.440186888e-01
      435590000    3.253243566e-01   -2.433145344e-01
      435607500    3.253249824e-01   -2.441592813e-01
      435625000    3.255729377e-01   -2.436473817e-01
      435642500    3.254024982e-01   -2.434413284e-01
      435660000    3.252667785e-01   -2.445812225e-01
      435677500    3.257062137e-01   -2.446346283e-01
      435695000    3.256185055e-01   -2.445286512e-01
      435712500    3.253110051e-01   -2.448635995e-01
      435730000    3.249596655e-01   -2.434478849e-01
      435747500    3.259436786e-01   -2.448302209e-01
      435765000    3.261601925e-01   -2.452800721e-01
      435782500    3.254917264e-01   -2.449910343e-01
      435800000    3.260867596e-01   -2.455046475e-01
      435817500    3.263170421e-01   -2.454256862e-01
      435835000    3.266630769e-01   -2.451386601e-01
      435852500    3.264273107e-01   -2.459804863e-01
      435870000    3.265042007e-01   -2.462314218e-01
      435887500    3.262821734e-01   -2.459847033e-01
      435905000    3.263454437e-01   -2.462003529e-01
      435922500    3.266510367e-01   -2.455867231e-01
      435940000    3.266030252e-01   -2.458696365e-01
      435957500    3.269043863e-01   -2.463846654e-01
      435975000    3.271603584e-01   -2.463196814e-01
      435992500    3.272126317e-01   -2.458009869e-01
      436010000    3.269620240e-01   -2.470368743e-01
      436027500    3.274806738e-01   -2.479320616e-01
      436045000    3.269547522e-01   -2.463357002e-01
      436062500    3.272338808e-01   -2.467680424e-01
      436080000    3.273406327e-01   -2.474312335e-01
      436097500    3.274359703e-01   -2.471944541e-01
      436115000    3.275119066e-01   -2.472245544e-01
      436132500    3.275214434e-01   -2.468473911e-01
      436150000    3.274874687e-01   -2.476460487e-01
      436167500    3.278626204e-01   -2.480801344e-01
      436185000    3.277417421e-01   -2.470684797e-01
      436202500    3.279062808e-01   -2.481912225e-01
      436220000    3.277001381e-01   -2.477572262e-01
      436237500    3.276929557e-01   -2.483766526e-01
      436255000    3.277739286e-01   -2.479823083e-01
      436272500    3.280770183e-01   -2.476835698e-01
      436290000    3.283525109e-01   -2.485219836e-01
      436307500    3.286449909e-01   -2.486643046e-01
      436325000    3.282206655e-01   -2.484921664e-01
      436342500    3.281294703e-01   -2.483172566e-01
      436360000    3.287774622e-01   -2.493302226e-01
      436377500    3.284863532e-01   -2.491479516e-01
      436395000    3.288454711e-01   -2.489364147e-01
      436412500    3.293988109e-01   -2.488314658e-01
      436430000    3.289055228e-01   -2.487574220e-01
      436447500    3.285938203e-01   -2.494747490e-01
      436465000    3.289299011e-01   -2.497848570e-01
      436482500    3.293434680e-01   -2.493016869e-01
      436500000    3.289976120e-01   -2.498323172e-01
      436517500    3.295166790e-01   -2.496667653e-01
      436535000    3.291571438e-01   -2.499887347e-01
      436552500    3.281833529e-01   -2.493686080e-01
      436570000    3.294237852e-01   -2.499314398e-01
      436587500    3.296658099e-01   -2.497394383e-01
      436605000    3.292480707e-01   -2.505032122e-01
      436622500    3.298967183e-01   -2.504216731e-01
      436640000    3.299069405e-01   -2.498034388e-01
      436657500    3.292552233e-01   -2.506445050e-01
      436675000    3.300826848e-01   -2.506984770e-01
      436692500    3.300636411e-01   -2.511786819e-01
      436710000    3.294937313e-01   -2.511392236e-01
      436727500    3.293615282e-01   -2.512761950e-01
      436745000    3.299416006e-01   -2.516342402e-01
      436762500    3.307862878e-01   -2.515732348e-01
      436780000    3.299959600e-01   -2.518306971e-01
      436797500    3.303708136e-01   -2.516882420e-01
      436815000    3.306821585e-01   -2.514844239e-01
      436832500    3.306483924e-01   -2.514818609e-01
      436850000    3.299179077e-01   -2.517336011e-01
      436867500    3.304140866e-01   -2.518671453e-01
      436885000    3.307566643e-01   -2.518856525e-01
      436902500    3.305214047e-01   -2.521419525e-01
      436920000    3.309336007e-01   -2.519276738e-01
      436937500    3.302943408e-01   -2.511211336e-01
      436955000    3.300981820e-01   -2.527939975e-01
      436972500    3.305364847e-01   -2.521778345e-01
      436990000    3.311207891e-01   -2.513722777e-01
      437007500    3.312570155e-01   -2.529777288e-01
      437025000    3.309163153e-01   -2.526870072e-01
      437042500    3.312852979e-01   -2.528063655e-01
      437060000    3.310046792e-01   -2.531954646e-01
      437077500    3.314512372e-01   -2.526514232e-01
      437095000    3.311676979e-01   -2.531469762e-01
      437112500    3.282554448e-01   -2.483983189e-01
      437130000    3.324733675e-01   -2.533216178e-01
      437147500    3.315450549e-01   -2.531669736e-01
      437165000    3.314915597e-01   -2.533521056e-01
      437182500    3.317967951e-01   -2.534733117e-01
      437200000    3.316976428e-01   -2.534525692e-01
      437217500    3.319735527e-01   -2.531234622e-01
      437235000    3.315792382e-01   -2.530905604e-01
      437252500    3.316860795e-01   -2.529168427e-01
      437270000    3.318028748e-01   -2.537699342e-01
      437287500    3.325444758e-01   -2.537598014e-01
      437305000    3.318905830e-01   -2.543895245e-01
      437322500    3.321929574e-01   -2.541511059e-01
      437340000    3.324032724e-01   -2.540591061e-01
      437357500    3.319122493e-01   -2.547279596e-01
      437375000    3.324840963e-01   -2.539559603e-01
      437392500    3.323644102e-01   -2.538896799e-01
      437410000    3.325307965e-01   -2.546608448e-01
      437427500    3.324753344e-01   -2.539596856e-01
      437445000    3.326280713e-01   -2.544412315e-01
      437462500    3.322524130e-01   -2.548178136e-01
      437480000    3.327529728e-01   -2.548065484e-01
      437497500    3.328979611e-01   -2.550618052e-01
      437515000    3.324384391e-01   -2.549856901e-01
      437532500    3.333598077e-01   -2.552102208e-01
      437550000    3.330426812e-01   -2.553986907e-01
      437567500    3.334140182e-01   -2.553397715e-01
      437585000    3.333453238e-01   -2.549442947e-01
      437602500    3.332229853e-01   -2.553547323e-01
      437620000    3.337433338e-01   -2.549183965e-01
      437637500    3.334648013e-01   -2.555046082e-01
      437655000    3.297862113e-01   -2.551004887e-01
      437672500    3.333216906e-01   -2.552962303e-01
      437690000    3.337726891e-01   -2.551596761e-01
      437707500    3.333171904e-01   -2.563048601e-01
      437725000    3.338293433e-01   -2.557765245e-01
      437742500    3.333260119e-01   -2.555511296e-01
      437760000    3.336545527e-01   -2.559017539e-01
      437777500    3.339686692e-01   -2.556431592e-01
      437795000    3.342324793e-01   -2.563935220e-01
      437812500    3.338057995e-01   -2.558775246e-01
      437830000    3.338492215e-01   -2.564572990e-01
      437847500    3.341577649e-01   -2.567663789e-01
      437865000    3.344266117e-01   -2.569966316e-01
      437882500    3.345464468e-01   -2.562545538e-01
      437900000    3.342615664e-01   -2.568129897e-01
      437917500    3.347979188e-01   -2.575746477e-01
      437935000    3.343242705e-01   -2.567495704e-01
      437952500    3.341682851e-01   -2.566484809e-01
      437970000    3.346610665e-01   -2.568241656e-01
      437987500    3.348343074e-01   -2.564419210e-01
      438005000    3.344238102e-01   -2.572160065e-01
      438022500    3.349800706e-01   -2.574839294e-01
      438040000    3.354893625e-01   -2.565591335e-01
      438057500    3.348733783e-01   -2.576400042e-01
      438075000    3.353219926e-01   -2.574803531e-01
      438092500    3.353031874e-01   -2.572865188e-01
      438110000    3.343469501e-01   -2.575322092e-01
      438127500    3.351908028e-01   -2.576291263e-01
      438145000    3.347341120e-01   -2.574957311e-01
      438162500    3.350075781e-01   -2.578827143e-01
      438180000    3.353258669e-01   -2.577076256e-01
      438197500    3.351103365e-01   -2.579403818e-01
      438215000    3.350767791e-01   -2.581331730e-01
      438232500    3.352371156e-01   -2.574482560e-01
      438250000    3.352446258e-01   -2.581830323e-01
      438267500    3.355327547e-01   -2.577570081e-01
      438285000    3.352946639e-01   -2.577227056e-01
      438302500    3.359529078e-01   -2.577667832e-01
      438320000    3.357091844e-01   -2.570298314e-01
      438337500    3.357622027e-01   -2.577352226e-01
      438355000    3.357454836e-01   -2.583432794e-01
      438372500    3.358706832e-01   -2.582892776e-01
      438390000    3.357969820e-01   -2.586278915e-01
      438407500    3.354840279e-01   -2.576796710e-01
      438425000    3.363664448e-01   -2.582234442e-01
      438442500    3.355767727e-01   -2.589088976e-01
      438460000    3.363835514e-01   -2.584672272e-01
      438477500    3.363695443e-01   -2.583401501e-01
      438495000    3.361998796e-01   -2.593010068e-01
      438512500    3.361724913e-01   -2.591989040e-01
      438530000    3.368898034e-01   -2.583651245e-01
      438547500    3.363416195e-01   -2.590718269e-01
      438565000    3.368797004e-01   -2.588571906e-01
      438582500    3.368486464e-01   -2.588844001e-01
      438600000    3.366006315e-01   -2.591220737e-01
      438617500    3.374140263e-01   -2.592369318e-01
      438635000    3.367824554e-01   -2.594932914e-01
      438652500    3.367301822e-01   -2.606916428e-01
      438670000    3.372135162e-01   -2.587942481e-01
      438687500    3.369226754e-01   -2.600739300e-01
      438705000    3.371861577e-01   -2.594024241e-01
      438722500    3.358456492e-01   -2.584580779e-01
      438740000    3.372945487e-01   -2.612527907e-01
      438757500    3.374869823e-01   -2.606620193e-01
      438775000    3.377937675e-01   -2.594787180e-01
      438792500    3.382862508e-01   -2.604489028e-01
      438810000    3.378750384e-01   -2.599020302e-01
      438827500    3.381742239e-01   -2.596814334e-01
      438845000    3.376259208e-01   -2.600649297e-01
      438862500    3.380118608e-01   -2.602783740e-01
      438880000    3.378241062e-01   -2.605552375e-01
      438897500    3.380082846e-01   -2.604043484e-01
      438915000    3.381995261e-01   -2.598823905e-01
      438932500    3.382566571e-01   -2.598098218e-01
      438950000    3.380658925e-01   -2.601228356e-01
      438967500    3.388773203e-01   -2.604565620e-01
      438985000    3.382954597e-01   -2.607647777e-01
      439002500    3.388026655e-01   -2.606395781e-01
      439020000    3.391022384e-01   -2.605420947e-01
      439037500    3.387651443e-01   -2.606225610e-01
      439055000    3.384563625e-01   -2.612218559e-01
      439072500    3.387413323e-01   -2.607175410e-01
      439090000    3.381980658e-01   -2.609644532e-01
      439107500    3.393892348e-01   -2.608671188e-01
      439125000    3.393709064e-01   -2.603144944e-01
      439142500    3.383937478e-01   -2.610569298e-01
      439160000    3.392333388e-01   -2.607622147e-01
      439177500    3.395000994e-01   -2.607051134e-01
      439195000    3.393612504e-01   -2.611193359e-01
      439212500    3.394125998e-01   -2.607962191e-01
      439230000    3.392471075e-01   -2.606041431e-01
      439247500    3.394596577e-01   -2.616244256e-01
      439265000    3.398680389e-01   -2.612461150e-01
      439282500    3.398404419e-01   -2.613391876e-01
