! NanoVNA-App
! Date: 2023-06-06 09:36:38
! Start: 25MHz Stop: 475MHz Points: 401
! S-Parameter data: F S11
# Hz S RI R 50
!     Frequency           S11_Real           S11_Imag
       25000000    9.908440113e-01   -1.198120266e-01
       26125000    9.902879000e-01   -1.250013858e-01
       27250000    9.896783233e-01   -1.303570569e-01
       28375000    9.887996912e-01   -1.358200908e-01
       29500000    9.880998135e-01   -1.412357539e-01
       30625000    9.872989058e-01   -1.467217654e-01
       31750000    9.864225388e-01   -1.520011276e-01
       32875000    9.856213331e-01   -1.574315578e-01
       34000000    9.845928550e-01   -1.629940271e-01
       35125000    9.839408994e-01   -1.683469117e-01
       36250000    9.829142690e-01   -1.739054322e-01
       37375000    9.819404483e-01   -1.795343459e-01
       38500000    9.807915688e-01   -1.850673854e-01
       39625000    9.796386361e-01   -1.905651093e-01
       40750000    9.786196947e-01   -1.960508674e-01
       41875000    9.774283767e-01   -2.013537139e-01
       43000000    9.762856960e-01   -2.070845217e-01
       44125000    9.750302434e-01   -2.126579434e-01
       45250000    9.738348722e-01   -2.180725634e-01
       46375000    9.724666476e-01   -2.238803357e-01
       47500000    9.711342454e-01   -2.293014973e-01
       48625000    9.699757099e-01   -2.348947227e-01
       49750000    9.685090184e-01   -2.406424284e-01
       50875000    9.669702053e-01   -2.463474572e-01
       52000000    9.650155306e-01   -2.515500784e-01
       53125000    9.641423821e-01   -2.579756677e-01
       54250000    9.623270035e-01   -2.635056078e-01
       55375000    9.606885314e-01   -2.691787481e-01
       56500000    9.589547515e-01   -2.747130990e-01
       57625000    9.574573636e-01   -2.802709639e-01
       58750000    9.558602571e-01   -2.862125039e-01
       59875000    9.539930224e-01   -2.919885218e-01
       61000000    9.520298243e-01   -2.977344692e-01
       62125000    9.501668811e-01   -3.036630154e-01
       63250000    9.482917190e-01   -3.095773757e-01
       64375000    9.462208152e-01   -3.153789937e-01
       65500000    9.442373514e-01   -3.213079870e-01
       66625000    9.422418475e-01   -3.272093236e-01
       67750000    9.399933815e-01   -3.332995772e-01
       68875000    9.379297495e-01   -3.392402530e-01
       70000000    9.355413914e-01   -3.453927338e-01
       71125000    9.334191680e-01   -3.514661491e-01
       72250000    9.311358929e-01   -3.576063216e-01
       73375000    9.285340309e-01   -3.640265763e-01
       74500000    9.259926081e-01   -3.703233600e-01
       75625000    9.233319759e-01   -3.765217364e-01
       76750000    9.204710722e-01   -3.828025460e-01
       77875000    9.175992608e-01   -3.889037371e-01
       79000000    9.146801233e-01   -3.952600956e-01
       80125000    9.117194414e-01   -4.016140699e-01
       81250000    9.086932540e-01   -4.079709053e-01
       82375000    9.055281878e-01   -4.142041802e-01
       83500000    9.023979902e-01   -4.206420779e-01
       84625000    8.992353082e-01   -4.272423983e-01
       85750000    8.960742950e-01   -4.337453842e-01
       86875000    8.924785852e-01   -4.405499399e-01
       88000000    8.889499903e-01   -4.473858476e-01
       89125000    8.849899173e-01   -4.542763531e-01
       90250000    8.812550306e-01   -4.613266587e-01
       91375000    8.774613142e-01   -4.684728980e-01
       92500000    8.730381727e-01   -4.758830369e-01
       93625000    8.690322042e-01   -4.832194149e-01
       94750000    8.645998240e-01   -4.905243516e-01
       95875000    8.600757122e-01   -4.979485869e-01
       97000000    8.553084135e-01   -5.056488514e-01
       98125000    8.504349589e-01   -5.134236217e-01
       99250000    8.452888727e-01   -5.212762356e-01
      100375000    8.399454355e-01   -5.293247700e-01
      101500000    8.344330192e-01   -5.373761058e-01
      102625000    8.286856413e-01   -5.456017256e-01
      103750000    8.225417137e-01   -5.538315177e-01
      104875000    8.161013722e-01   -5.623797178e-01
      106000000    8.094428182e-01   -5.710599422e-01
      107125000    8.026635647e-01   -5.796625018e-01
      108250000    7.953456044e-01   -5.886483788e-01
      109375000    7.877563834e-01   -5.979264379e-01
      110500000    7.795959115e-01   -6.075959802e-01
      111625000    7.710011601e-01   -6.178512573e-01
      112750000    7.616138458e-01   -6.278500557e-01
      113875000    7.514066696e-01   -6.384115219e-01
      115000000    7.405044436e-01   -6.489406228e-01
      116125000    7.288624644e-01   -6.597086787e-01
      117250000    7.164732218e-01   -6.709309816e-01
      118375000    7.029452920e-01   -6.821430922e-01
      119500000    6.884120107e-01   -6.937572956e-01
      120625000    6.733958125e-01   -7.057195306e-01
      121750000    6.543866992e-01   -7.179707289e-01
      122875000    6.361281276e-01   -7.312172651e-01
      124000000    6.146802306e-01   -7.446587086e-01
      125125000    5.892474055e-01   -7.555269003e-01
      126250000    5.617232323e-01   -7.684133053e-01
      127375000    5.307212472e-01   -7.804399729e-01
      128500000    4.948733151e-01   -7.916302085e-01
      129625000    4.523017108e-01   -8.017207980e-01
      130750000    4.037384987e-01   -8.046627045e-01
      131875000    3.478583694e-01   -7.991165519e-01
      133000000    2.904474139e-01   -7.857726216e-01
      134125000    2.311056852e-01   -7.577638626e-01
      135250000    1.748316437e-01   -7.118526101e-01
      136375000    1.352507472e-01   -6.526867151e-01
      137500000    1.183955148e-01   -5.939435959e-01
      138625000    1.124707386e-01   -5.503971577e-01
      139750000    1.029642820e-01   -5.222443342e-01
      140875000    7.427208126e-02   -4.978167713e-01
      142000000    2.966007777e-02   -4.553188086e-01
      143125000   -1.499730535e-02   -3.918615580e-01
      144250000   -5.637539923e-02   -3.036235273e-01
      145375000   -7.885142416e-02   -1.872141510e-01
      146500000   -6.242539734e-02   -4.443018883e-02
      147625000    1.168584451e-02    9.850479662e-02
      148750000    1.399964541e-01    2.093323320e-01
      149875000    2.934758663e-01    2.636106610e-01
      151000000    4.436470866e-01    2.601043284e-01
      152125000    5.664312243e-01    2.143973410e-01
      153250000    6.564233303e-01    1.486195624e-01
      154375000    7.140259147e-01    7.772073150e-02
      155500000    7.483841181e-01    1.353880856e-02
      156625000    7.691149116e-01   -4.249684885e-02
      157750000    7.827211618e-01   -8.986417949e-02
      158875000    7.930445671e-01   -1.339766085e-01
      160000000    7.973799109e-01   -1.754812598e-01
      161125000    7.965481281e-01   -2.122861743e-01
      162250000    7.929713726e-01   -2.453030646e-01
      163375000    7.869567275e-01   -2.752417624e-01
      164500000    7.796204090e-01   -3.025114238e-01
      165625000    7.703387737e-01   -3.282906115e-01
      166750000    7.586150765e-01   -3.529722393e-01
      167875000    7.431967854e-01   -3.761794567e-01
      169000000    7.250117064e-01   -3.980537355e-01
      170125000    6.987038851e-01   -4.103631973e-01
      171250000    6.726580262e-01   -4.168159664e-01
      172375000    6.484152675e-01   -4.154592156e-01
      173500000    6.275141239e-01   -4.075546265e-01
      174625000    6.120299697e-01   -3.988558352e-01
      175750000    5.996052623e-01   -3.887620866e-01
      176875000    5.897167325e-01   -3.764235377e-01
      178000000    5.806592703e-01   -3.614113927e-01
      179125000    5.758235455e-01   -3.435338438e-01
      180250000    5.759717226e-01   -3.239076138e-01
      181375000    5.823692083e-01   -3.022424281e-01
      182500000    5.979136229e-01   -2.819255590e-01
      183625000    6.199750304e-01   -2.691674829e-01
      184750000    6.451654434e-01   -2.638253570e-01
      185875000    6.682357192e-01   -2.660282254e-01
      187000000    6.880244017e-01   -2.725553215e-01
      188125000    7.049439549e-01   -2.818575203e-01
      189250000    7.195338011e-01   -2.921289206e-01
      190375000    7.327029705e-01   -3.030233979e-01
      191500000    7.444870472e-01   -3.152548373e-01
      192625000    7.549700141e-01   -3.290416002e-01
      193750000    7.634052038e-01   -3.432766497e-01
      194875000    7.700577378e-01   -3.583078384e-01
      196000000    7.750460505e-01   -3.737515509e-01
      197125000    7.785459757e-01   -3.885319233e-01
      198250000    7.803363204e-01   -4.030973911e-01
      199375000    7.806551456e-01   -4.172904193e-01
      200500000    7.805252671e-01   -4.312802553e-01
      201625000    7.793676257e-01   -4.440545440e-01
      202750000    7.780471444e-01   -4.558604360e-01
      203875000    7.762912512e-01   -4.681338370e-01
      205000000    7.743271589e-01   -4.795629978e-01
      206125000    7.716763020e-01   -4.910239875e-01
      207250000    7.686690092e-01   -5.020032525e-01
      208375000    7.647726536e-01   -5.128092170e-01
      209500000    7.611793280e-01   -5.229284167e-01
      210625000    7.567338347e-01   -5.330754519e-01
      211750000    7.522228360e-01   -5.430024266e-01
      212875000    7.473267317e-01   -5.525665879e-01
      214000000    7.422515154e-01   -5.612789392e-01
      215125000    7.366991043e-01   -5.696575642e-01
      216250000    7.316092849e-01   -5.782074332e-01
      217375000    7.263146639e-01   -5.864374638e-01
      218500000    7.206580043e-01   -5.946360230e-01
      219625000    7.152010202e-01   -6.025950313e-01
      220750000    7.091265321e-01   -6.104187965e-01
      221875000    7.026464343e-01   -6.179230213e-01
      223000000    6.957291961e-01   -6.251118183e-01
      224125000    6.887520552e-01   -6.314786077e-01
      225250000    6.820235848e-01   -6.375402808e-01
      226375000    6.746726632e-01   -6.436116695e-01
      227500000    6.683860421e-01   -6.507126093e-01
      228625000    6.600645781e-01   -6.556818485e-01
      229750000    6.526858211e-01   -6.620973945e-01
      230875000    6.445259452e-01   -6.682802439e-01
      232000000    6.356818676e-01   -6.740880013e-01
      233125000    6.251270175e-01   -6.792818904e-01
      234250000    6.143156290e-01   -6.832615733e-01
      235375000    6.032046676e-01   -6.853870749e-01
      236500000    5.919049978e-01   -6.859101057e-01
      237625000    5.812879801e-01   -6.844536066e-01
      238750000    5.721448660e-01   -6.808581352e-01
      239875000    5.645285845e-01   -6.767807603e-01
      241000000    5.585892797e-01   -6.725988388e-01
      242125000    5.551374555e-01   -6.677961946e-01
      243250000    5.535938740e-01   -6.629145145e-01
      244375000    5.541124344e-01   -6.592600942e-01
      245500000    5.561994314e-01   -6.585239172e-01
      246625000    5.581377149e-01   -6.598099470e-01
      247750000    5.592813492e-01   -6.628242731e-01
      248875000    5.592647195e-01   -6.673044562e-01
      250000000    5.577705503e-01   -6.713059545e-01
      251125000    5.560425520e-01   -6.741904020e-01
      252250000    5.552442670e-01   -6.781250238e-01
      253375000    5.535085201e-01   -6.833790541e-01
      254500000    5.515279174e-01   -6.885589957e-01
      255625000    5.484443903e-01   -6.939860582e-01
      256750000    5.450766087e-01   -6.989150047e-01
      257875000    5.415828228e-01   -7.037295699e-01
      259000000    5.372426510e-01   -7.090458274e-01
      260125000    5.328595042e-01   -7.140814662e-01
      261250000    5.283066630e-01   -7.186949253e-01
      262375000    5.232803822e-01   -7.236405611e-01
      263500000    5.180963278e-01   -7.277312279e-01
      264625000    5.122998953e-01   -7.315325141e-01
      265750000    5.071847439e-01   -7.354118824e-01
      266875000    5.019198656e-01   -7.390158772e-01
      268000000    4.965958595e-01   -7.432529330e-01
      269125000    4.906659126e-01   -7.465678453e-01
      270250000    4.850745499e-01   -7.500947118e-01
      271375000    4.791041017e-01   -7.533504367e-01
      272500000    4.735451937e-01   -7.562398314e-01
      273625000    4.677362740e-01   -7.590189576e-01
      274750000    4.623278379e-01   -7.615196109e-01
      275875000    4.572094083e-01   -7.642849684e-01
      277000000    4.521387517e-01   -7.673028708e-01
      278125000    4.470970035e-01   -7.705715299e-01
      279250000    4.413218796e-01   -7.740529180e-01
      280375000    4.356872737e-01   -7.775681019e-01
      281500000    4.298756123e-01   -7.810627818e-01
      282625000    4.234358668e-01   -7.847727537e-01
      283750000    4.169677794e-01   -7.880055308e-01
      284875000    4.103327692e-01   -7.913472056e-01
      286000000    4.031423032e-01   -7.942197323e-01
      287125000    3.960677683e-01   -7.978535891e-01
      288250000    3.890783787e-01   -8.006374240e-01
      289375000    3.817184865e-01   -8.027755618e-01
      290500000    3.781315088e-01   -7.984144092e-01
      291625000    3.726436496e-01   -8.007588983e-01
      292750000    3.647668362e-01   -8.026621342e-01
      293875000    3.588342071e-01   -8.040995598e-01
      295000000    3.515534997e-01   -8.051989079e-01
      296125000    3.445426524e-01   -8.065155745e-01
      297250000    3.380471766e-01   -8.084262013e-01
      298375000    3.315143883e-01   -8.117438555e-01
      299500000    3.236424625e-01   -8.135319352e-01
      300625000    3.169501424e-01   -8.135321736e-01
      301750000    3.075377047e-01   -8.188150525e-01
      302875000    2.979739606e-01   -8.200252056e-01
      304000000    2.894441783e-01   -8.213416338e-01
      305125000    2.802638412e-01   -8.227866888e-01
      306250000    2.718666494e-01   -8.210050464e-01
      307375000    2.611550987e-01   -8.203563690e-01
      308500000    2.552475631e-01   -8.209347129e-01
      309625000    2.465617955e-01   -8.211004138e-01
      310750000    2.396302372e-01   -8.208337426e-01
      311875000    2.316260785e-01   -8.214221597e-01
      313000000    2.233199626e-01   -8.214559555e-01
      314125000    2.139418572e-01   -8.221161962e-01
      315250000    2.053113580e-01   -8.218834400e-01
      316375000    1.954903752e-01   -8.217423558e-01
      317500000    1.861080676e-01   -8.213238120e-01
      318625000    1.762626171e-01   -8.211559057e-01
      319750000    1.662140638e-01   -8.197872043e-01
      320875000    1.571000814e-01   -8.180779219e-01
      322000000    1.472898275e-01   -8.164197206e-01
      323125000    1.363780946e-01   -8.157016039e-01
      324250000    1.231384799e-01   -8.148877621e-01
      325375000    1.139410883e-01   -8.096421361e-01
      326500000    1.031302139e-01   -8.053790331e-01
      327625000    9.300727397e-02   -8.015114665e-01
      328750000    8.247785270e-02   -7.969654799e-01
      329875000    7.308230549e-02   -7.921769619e-01
      331000000    6.348591298e-02   -7.872460485e-01
      332125000    5.370681360e-02   -7.821165323e-01
      333250000    4.503593221e-02   -7.762358785e-01
      334375000    3.526921570e-02   -7.712541819e-01
      335500000    2.610258199e-02   -7.649916410e-01
      336625000    1.678977534e-02   -7.578810453e-01
      337750000    7.460555527e-03   -7.527100444e-01
      338875000   -1.353844884e-03   -7.461203933e-01
      340000000   -9.752008133e-03   -7.395750880e-01
      341125000   -1.897208765e-02   -7.313548326e-01
      342250000   -2.716588043e-02   -7.242442369e-01
      343375000   -3.521010280e-02   -7.167661190e-01
      344500000   -4.302589223e-02   -7.096122503e-01
      345625000   -5.140146241e-02   -7.031572461e-01
      346750000   -6.015594676e-02   -6.965278983e-01
      347875000   -7.061387599e-02   -6.896653771e-01
      349000000   -8.257122338e-02   -6.818386316e-01
      350125000   -9.466426820e-02   -6.721265912e-01
      351250000   -1.074792072e-01   -6.596381664e-01
      352375000   -1.189933494e-01   -6.449794173e-01
      353500000   -1.291434467e-01   -6.285837293e-01
      354625000   -1.365409642e-01   -6.106035709e-01
      355750000   -1.424524039e-01   -5.918702483e-01
      356875000   -1.462750435e-01   -5.734160542e-01
      358000000   -1.476174146e-01   -5.552259684e-01
      359125000   -1.476108283e-01   -5.362994075e-01
      360250000   -1.450567842e-01   -5.193284750e-01
      361375000   -1.412087977e-01   -5.033909082e-01
      362500000   -1.354410797e-01   -4.891828299e-01
      363625000   -1.291842163e-01   -4.773922563e-01
      364750000   -1.248929426e-01   -4.683140814e-01
      365875000   -1.224549338e-01   -4.598561823e-01
      367000000   -1.200665757e-01   -4.507789314e-01
      368125000   -1.200614348e-01   -4.407587051e-01
      369250000   -1.193048283e-01   -4.299449325e-01
      370375000   -1.182085276e-01   -4.181545675e-01
      371500000   -1.160705984e-01   -4.055800140e-01
      372625000   -1.127059534e-01   -3.924535811e-01
      373750000   -1.068927497e-01   -3.803244233e-01
      374875000   -1.018224508e-01   -3.690779805e-01
      376000000   -9.577052295e-02   -3.590468764e-01
      377125000   -9.013436735e-02   -3.491300642e-01
      378250000   -8.483313769e-02   -3.398999274e-01
      379375000   -7.920902222e-02   -3.310237825e-01
      380500000   -7.397376746e-02   -3.223406374e-01
      381625000   -6.914971024e-02   -3.131156266e-01
      382750000   -6.310630590e-02   -3.038166463e-01
      383875000   -5.729534850e-02   -2.945965827e-01
      385000000   -5.178631842e-02   -2.852937579e-01
      386125000   -4.498972371e-02   -2.758201361e-01
      387250000   -3.738933802e-02   -2.664626241e-01
      388375000   -2.970323339e-02   -2.570594549e-01
      389500000   -2.079372853e-02   -2.485932708e-01
      390625000   -1.141672302e-02   -2.409479022e-01
      391750000   -2.277508844e-03   -2.342129946e-01
      392875000    5.726717412e-03   -2.275769562e-01
      394000000    1.405752171e-02   -2.211378068e-01
      395125000    2.236251347e-02   -2.143635601e-01
      396250000    3.025308438e-02   -2.071051598e-01
      397375000    3.876345232e-02   -1.985127479e-01
      398500000    4.992338270e-02   -1.888349205e-01
      399625000    6.280697882e-02   -1.793790162e-01
      400750000    8.111130446e-02   -1.737594604e-01
      401875000    9.760814160e-02   -1.684824377e-01
      403000000    1.132054925e-01   -1.661920995e-01
      404125000    1.318546087e-01   -1.663999856e-01
      405250000    1.467156261e-01   -1.689513773e-01
      406375000    1.598161012e-01   -1.713633537e-01
      407500000    1.710809916e-01   -1.748092324e-01
      408625000    1.835786998e-01   -1.774198711e-01
      409750000    1.947875768e-01   -1.805264354e-01
      410875000    2.064170837e-01   -1.850769520e-01
      412000000    2.169085741e-01   -1.884269416e-01
      413125000    2.268000990e-01   -1.921786368e-01
      414250000    2.389666438e-01   -1.971455812e-01
      415375000    2.486475259e-01   -2.046280652e-01
      416500000    2.579191029e-01   -2.100803256e-01
      417625000    2.657030821e-01   -2.168370634e-01
      418750000    2.718071043e-01   -2.242494226e-01
      419875000    2.765584886e-01   -2.294994891e-01
      421000000    2.814883292e-01   -2.353616506e-01
      422125000    2.853109837e-01   -2.384036481e-01
      423250000    2.908320725e-01   -2.410189658e-01
      424375000    2.967014015e-01   -2.434417456e-01
      425500000    3.026222289e-01   -2.460964024e-01
      426625000    3.104434609e-01   -2.483773828e-01
      427750000    3.173822165e-01   -2.523345649e-01
      428875000    3.266625106e-01   -2.559022307e-01
